 time            v(nodeA)        time            v(nodeB)       
 0.00000000e+00  0.00000000e+00  0.00000000e+00  0.00000000e+00 
 1.00000000e-08  3.14159265e-04  1.00000000e-08  1.57079633e-04 
 2.00000000e-08  6.28318529e-04  2.00000000e-08  3.14159265e-04 
 4.00000000e-08  1.25663705e-03  4.00000000e-08  6.28318524e-04 
 8.00000000e-08  2.51327402e-03  8.00000000e-08  1.25663701e-03 
 1.60000000e-07  5.02654740e-03  1.60000000e-07  2.51327370e-03 
 3.20000000e-07  1.00530897e-02  3.20000000e-07  5.02654486e-03 
 6.40000000e-07  2.01061388e-02  6.40000000e-07  1.00530694e-02 
 1.28000000e-06  4.02119525e-02  1.28000000e-06  2.01059762e-02 
 2.28000000e-06  7.16258625e-02  2.28000000e-06  3.58129313e-02 
 3.28000000e-06  1.03036945e-01  3.28000000e-06  5.15184725e-02 
 4.28000000e-06  1.34443960e-01  4.28000000e-06  6.72219798e-02 
 5.28000000e-06  1.65845667e-01  5.28000000e-06  8.29228334e-02 
 6.28000000e-06  1.97240826e-01  6.28000000e-06  9.86204132e-02 
 7.28000000e-06  2.28628200e-01  7.28000000e-06  1.14314100e-01 
 8.28000000e-06  2.60006547e-01  8.28000000e-06  1.30003273e-01 
 9.28000000e-06  2.91374629e-01  9.28000000e-06  1.45687315e-01 
 1.02800000e-05  3.22731209e-01  1.02800000e-05  1.61365604e-01 
 1.12800000e-05  3.54075048e-01  1.12800000e-05  1.77037524e-01 
 1.22800000e-05  3.85404908e-01  1.22800000e-05  1.92702454e-01 
 1.32800000e-05  4.16719553e-01  1.32800000e-05  2.08359777e-01 
 1.42800000e-05  4.48017747e-01  1.42800000e-05  2.24008874e-01 
 1.52800000e-05  4.79298254e-01  1.52800000e-05  2.39649127e-01 
 1.62800000e-05  5.10559839e-01  1.62800000e-05  2.55279920e-01 
 1.72800000e-05  5.41801268e-01  1.72800000e-05  2.70900634e-01 
 1.82800000e-05  5.73021308e-01  1.82800000e-05  2.86510654e-01 
 1.92800000e-05  6.04218726e-01  1.92800000e-05  3.02109363e-01 
 2.02800000e-05  6.35392290e-01  2.02800000e-05  3.17696145e-01 
 2.12800000e-05  6.66540770e-01  2.12800000e-05  3.33270385e-01 
 2.22800000e-05  6.97662936e-01  2.22800000e-05  3.48831468e-01 
 2.32800000e-05  7.28757560e-01  2.32800000e-05  3.64378780e-01 
 2.42800000e-05  7.59823414e-01  2.42800000e-05  3.79911707e-01 
 2.52800000e-05  7.90859271e-01  2.52800000e-05  3.95429635e-01 
 2.62800000e-05  8.21863906e-01  2.62800000e-05  4.10931953e-01 
 2.72800000e-05  8.52836095e-01  2.72800000e-05  4.26418048e-01 
 2.82800000e-05  8.83774616e-01  2.82800000e-05  4.41887308e-01 
 2.92800000e-05  9.14678247e-01  2.92800000e-05  4.57339124e-01 
 3.02800000e-05  9.45545769e-01  3.02800000e-05  4.72772884e-01 
 3.12800000e-05  9.76375961e-01  3.12800000e-05  4.88187981e-01 
 3.22800000e-05  1.00716761e+00  3.22800000e-05  5.03583804e-01 
 3.32800000e-05  1.03791949e+00  3.32800000e-05  5.18959747e-01 
 3.42800000e-05  1.06863040e+00  3.42800000e-05  5.34315202e-01 
 3.52800000e-05  1.09929913e+00  3.52800000e-05  5.49649563e-01 
 3.62800000e-05  1.12992445e+00  3.62800000e-05  5.64962226e-01 
 3.72800000e-05  1.16050517e+00  3.72800000e-05  5.80252584e-01 
 3.82800000e-05  1.19104007e+00  3.82800000e-05  5.95520035e-01 
 3.92800000e-05  1.22152795e+00  3.92800000e-05  6.10763976e-01 
 4.02800000e-05  1.25196761e+00  4.02800000e-05  6.25983805e-01 
 4.12800000e-05  1.28235784e+00  4.12800000e-05  6.41178921e-01 
 4.22800000e-05  1.31269745e+00  4.22800000e-05  6.56348725e-01 
 4.32800000e-05  1.34298523e+00  4.32800000e-05  6.71492617e-01 
 4.42800000e-05  1.37322000e+00  4.42800000e-05  6.86609999e-01 
 4.52800000e-05  1.40340055e+00  4.52800000e-05  7.01700276e-01 
 4.62800000e-05  1.43352570e+00  4.62800000e-05  7.16762850e-01 
 4.72800000e-05  1.46359426e+00  4.72800000e-05  7.31797128e-01 
 4.82800000e-05  1.49360503e+00  4.82800000e-05  7.46802516e-01 
 4.92800000e-05  1.52355684e+00  4.92800000e-05  7.61778422e-01 
 5.02800000e-05  1.55344851e+00  5.02800000e-05  7.76724253e-01 
 5.12800000e-05  1.58327884e+00  5.12800000e-05  7.91639421e-01 
 5.22800000e-05  1.61304667e+00  5.22800000e-05  8.06523337e-01 
 5.32800000e-05  1.64275082e+00  5.32800000e-05  8.21375412e-01 
 5.42800000e-05  1.67239012e+00  5.42800000e-05  8.36195061e-01 
 5.52800000e-05  1.70196340e+00  5.52800000e-05  8.50981698e-01 
 5.62800000e-05  1.73146948e+00  5.62800000e-05  8.65734740e-01 
 5.72800000e-05  1.76090721e+00  5.72800000e-05  8.80453604e-01 
 5.82800000e-05  1.79027542e+00  5.82800000e-05  8.95137709e-01 
 5.92800000e-05  1.81957295e+00  5.92800000e-05  9.09786476e-01 
 6.02800000e-05  1.84879865e+00  6.02800000e-05  9.24399326e-01 
 6.12800000e-05  1.87795136e+00  6.12800000e-05  9.38975682e-01 
 6.22800000e-05  1.90702994e+00  6.22800000e-05  9.53514969e-01 
 6.32800000e-05  1.93603323e+00  6.32800000e-05  9.68016613e-01 
 6.42800000e-05  1.96496008e+00  6.42800000e-05  9.82480042e-01 
 6.52800000e-05  1.99380937e+00  6.52800000e-05  9.96904684e-01 
 6.62800000e-05  2.02257994e+00  6.62800000e-05  1.01128997e+00 
 6.72800000e-05  2.05127066e+00  6.72800000e-05  1.02563533e+00 
 6.82800000e-05  2.07988040e+00  6.82800000e-05  1.03994020e+00 
 6.92800000e-05  2.10840804e+00  6.92800000e-05  1.05420402e+00 
 7.02800000e-05  2.13685243e+00  7.02800000e-05  1.06842622e+00 
 7.12800000e-05  2.16521247e+00  7.12800000e-05  1.08260624e+00 
 7.22800000e-05  2.19348703e+00  7.22800000e-05  1.09674351e+00 
 7.32800000e-05  2.22167499e+00  7.32800000e-05  1.11083750e+00 
 7.42800000e-05  2.24977525e+00  7.42800000e-05  1.12488762e+00 
 7.52800000e-05  2.27778668e+00  7.52800000e-05  1.13889334e+00 
 7.62800000e-05  2.30570820e+00  7.62800000e-05  1.15285410e+00 
 7.72800000e-05  2.33353869e+00  7.72800000e-05  1.16676934e+00 
 7.82800000e-05  2.36127705e+00  7.82800000e-05  1.18063853e+00 
 7.92800000e-05  2.38892220e+00  7.92800000e-05  1.19446110e+00 
 8.02800000e-05  2.41647303e+00  8.02800000e-05  1.20823652e+00 
 8.12800000e-05  2.44392847e+00  8.12800000e-05  1.22196424e+00 
 8.22800000e-05  2.47128743e+00  8.22800000e-05  1.23564371e+00 
 8.32800000e-05  2.49854882e+00  8.32800000e-05  1.24927441e+00 
 8.42800000e-05  2.52571157e+00  8.42800000e-05  1.26285579e+00 
 8.52800000e-05  2.55277462e+00  8.52800000e-05  1.27638731e+00 
 8.62800000e-05  2.57973688e+00  8.62800000e-05  1.28986844e+00 
 8.72800000e-05  2.60659730e+00  8.72800000e-05  1.30329865e+00 
 8.82800000e-05  2.63335482e+00  8.82800000e-05  1.31667741e+00 
 8.92800000e-05  2.66000838e+00  8.92800000e-05  1.33000419e+00 
 9.02800000e-05  2.68655692e+00  9.02800000e-05  1.34327846e+00 
 9.12800000e-05  2.71299940e+00  9.12800000e-05  1.35649970e+00 
 9.22800000e-05  2.73933478e+00  9.22800000e-05  1.36966739e+00 
 9.32800000e-05  2.76556202e+00  9.32800000e-05  1.38278101e+00 
 9.42800000e-05  2.79168007e+00  9.42800000e-05  1.39584004e+00 
 9.52800000e-05  2.81768792e+00  9.52800000e-05  1.40884396e+00 
 9.62800000e-05  2.84358452e+00  9.62800000e-05  1.42179226e+00 
 9.72800000e-05  2.86936887e+00  9.72800000e-05  1.43468444e+00 
 9.82800000e-05  2.89503994e+00  9.82800000e-05  1.44751997e+00 
 9.92800000e-05  2.92059672e+00  9.92800000e-05  1.46029836e+00 
 1.00280000e-04  2.94603819e+00  1.00280000e-04  1.47301910e+00 
 1.01280000e-04  2.97136337e+00  1.01280000e-04  1.48568168e+00 
 1.02280000e-04  2.99657124e+00  1.02280000e-04  1.49828562e+00 
 1.03280000e-04  3.02166081e+00  1.03280000e-04  1.51083040e+00 
 1.04280000e-04  3.04663109e+00  1.04280000e-04  1.52331554e+00 
 1.05280000e-04  3.07148109e+00  1.05280000e-04  1.53574054e+00 
 1.06280000e-04  3.09620984e+00  1.06280000e-04  1.54810492e+00 
 1.07280000e-04  3.12081635e+00  1.07280000e-04  1.56040817e+00 
 1.08280000e-04  3.14529966e+00  1.08280000e-04  1.57264983e+00 
 1.09280000e-04  3.16965880e+00  1.09280000e-04  1.58482940e+00 
 1.10280000e-04  3.19389280e+00  1.10280000e-04  1.59694640e+00 
 1.11280000e-04  3.21800072e+00  1.11280000e-04  1.60900036e+00 
 1.12280000e-04  3.24198159e+00  1.12280000e-04  1.62099080e+00 
 1.13280000e-04  3.26583448e+00  1.13280000e-04  1.63291724e+00 
 1.14280000e-04  3.28955844e+00  1.14280000e-04  1.64477922e+00 
 1.15280000e-04  3.31315253e+00  1.15280000e-04  1.65657626e+00 
 1.16280000e-04  3.33661582e+00  1.16280000e-04  1.66830791e+00 
 1.17280000e-04  3.35994739e+00  1.17280000e-04  1.67997370e+00 
 1.18280000e-04  3.38314632e+00  1.18280000e-04  1.69157316e+00 
 1.19280000e-04  3.40621168e+00  1.19280000e-04  1.70310584e+00 
 1.20280000e-04  3.42914257e+00  1.20280000e-04  1.71457129e+00 
 1.21280000e-04  3.45193809e+00  1.21280000e-04  1.72596904e+00 
 1.22280000e-04  3.47459733e+00  1.22280000e-04  1.73729866e+00 
 1.23280000e-04  3.49711940e+00  1.23280000e-04  1.74855970e+00 
 1.24280000e-04  3.51950340e+00  1.24280000e-04  1.75975170e+00 
 1.25280000e-04  3.54174847e+00  1.25280000e-04  1.77087423e+00 
 1.26280000e-04  3.56385371e+00  1.26280000e-04  1.78192685e+00 
 1.27280000e-04  3.58581826e+00  1.27280000e-04  1.79290913e+00 
 1.28280000e-04  3.60764124e+00  1.28280000e-04  1.80382062e+00 
 1.29280000e-04  3.62932180e+00  1.29280000e-04  1.81466090e+00 
 1.30280000e-04  3.65085908e+00  1.30280000e-04  1.82542954e+00 
 1.31280000e-04  3.67225224e+00  1.31280000e-04  1.83612612e+00 
 1.32280000e-04  3.69350041e+00  1.32280000e-04  1.84675021e+00 
 1.33280000e-04  3.71460278e+00  1.33280000e-04  1.85730139e+00 
 1.34280000e-04  3.73555850e+00  1.34280000e-04  1.86777925e+00 
 1.35280000e-04  3.75636674e+00  1.35280000e-04  1.87818337e+00 
 1.36280000e-04  3.77702669e+00  1.36280000e-04  1.88851335e+00 
 1.37280000e-04  3.79753753e+00  1.37280000e-04  1.89876877e+00 
 1.38280000e-04  3.81789845e+00  1.38280000e-04  1.90894923e+00 
 1.39280000e-04  3.83810865e+00  1.39280000e-04  1.91905432e+00 
 1.40280000e-04  3.85816732e+00  1.40280000e-04  1.92908366e+00 
 1.41280000e-04  3.87807368e+00  1.41280000e-04  1.93903684e+00 
 1.42280000e-04  3.89782694e+00  1.42280000e-04  1.94891347e+00 
 1.43280000e-04  3.91742632e+00  1.43280000e-04  1.95871316e+00 
 1.44280000e-04  3.93687105e+00  1.44280000e-04  1.96843553e+00 
 1.45280000e-04  3.95616036e+00  1.45280000e-04  1.97808018e+00 
 1.46280000e-04  3.97529348e+00  1.46280000e-04  1.98764674e+00 
 1.47280000e-04  3.99426967e+00  1.47280000e-04  1.99713483e+00 
 1.48280000e-04  4.01308817e+00  1.48280000e-04  2.00654408e+00 
 1.49280000e-04  4.03174824e+00  1.49280000e-04  2.01587412e+00 
 1.50280000e-04  4.05024914e+00  1.50280000e-04  2.02512457e+00 
 1.51280000e-04  4.06859014e+00  1.51280000e-04  2.03429507e+00 
 1.52280000e-04  4.08677053e+00  1.52280000e-04  2.04338526e+00 
 1.53280000e-04  4.10478958e+00  1.53280000e-04  2.05239479e+00 
 1.54280000e-04  4.12264657e+00  1.54280000e-04  2.06132329e+00 
 1.55280000e-04  4.14034081e+00  1.55280000e-04  2.07017041e+00 
 1.56280000e-04  4.15787160e+00  1.56280000e-04  2.07893580e+00 
 1.57280000e-04  4.17523824e+00  1.57280000e-04  2.08761912e+00 
 1.58280000e-04  4.19244005e+00  1.58280000e-04  2.09622003e+00 
 1.59280000e-04  4.20947635e+00  1.59280000e-04  2.10473818e+00 
 1.60280000e-04  4.22634647e+00  1.60280000e-04  2.11317324e+00 
 1.61280000e-04  4.24304974e+00  1.61280000e-04  2.12152487e+00 
 1.62280000e-04  4.25958550e+00  1.62280000e-04  2.12979275e+00 
 1.63280000e-04  4.27595310e+00  1.63280000e-04  2.13797655e+00 
 1.64280000e-04  4.29215189e+00  1.64280000e-04  2.14607594e+00 
 1.65280000e-04  4.30818123e+00  1.65280000e-04  2.15409062e+00 
 1.66280000e-04  4.32404050e+00  1.66280000e-04  2.16202025e+00 
 1.67280000e-04  4.33972906e+00  1.67280000e-04  2.16986453e+00 
 1.68280000e-04  4.35524629e+00  1.68280000e-04  2.17762315e+00 
 1.69280000e-04  4.37059159e+00  1.69280000e-04  2.18529580e+00 
 1.70280000e-04  4.38576434e+00  1.70280000e-04  2.19288217e+00 
 1.71280000e-04  4.40076395e+00  1.71280000e-04  2.20038198e+00 
 1.72280000e-04  4.41558983e+00  1.72280000e-04  2.20779492e+00 
 1.73280000e-04  4.43024139e+00  1.73280000e-04  2.21512069e+00 
 1.74280000e-04  4.44471805e+00  1.74280000e-04  2.22235902e+00 
 1.75280000e-04  4.45901923e+00  1.75280000e-04  2.22950962e+00 
 1.76280000e-04  4.47314439e+00  1.76280000e-04  2.23657219e+00 
 1.77280000e-04  4.48709295e+00  1.77280000e-04  2.24354647e+00 
 1.78280000e-04  4.50086437e+00  1.78280000e-04  2.25043218e+00 
 1.79280000e-04  4.51445810e+00  1.79280000e-04  2.25722905e+00 
 1.80280000e-04  4.52787361e+00  1.80280000e-04  2.26393680e+00 
 1.81280000e-04  4.54111037e+00  1.81280000e-04  2.27055518e+00 
 1.82280000e-04  4.55416785e+00  1.82280000e-04  2.27708392e+00 
 1.83280000e-04  4.56704554e+00  1.83280000e-04  2.28352277e+00 
 1.84280000e-04  4.57974293e+00  1.84280000e-04  2.28987146e+00 
 1.85280000e-04  4.59225952e+00  1.85280000e-04  2.29612976e+00 
 1.86280000e-04  4.60459482e+00  1.86280000e-04  2.30229741e+00 
 1.87280000e-04  4.61674833e+00  1.87280000e-04  2.30837417e+00 
 1.88280000e-04  4.62871959e+00  1.88280000e-04  2.31435979e+00 
 1.89280000e-04  4.64050811e+00  1.89280000e-04  2.32025405e+00 
 1.90280000e-04  4.65211343e+00  1.90280000e-04  2.32605671e+00 
 1.91280000e-04  4.66353509e+00  1.91280000e-04  2.33176754e+00 
 1.92280000e-04  4.67477264e+00  1.92280000e-04  2.33738632e+00 
 1.93280000e-04  4.68582565e+00  1.93280000e-04  2.34291282e+00 
 1.94280000e-04  4.69669366e+00  1.94280000e-04  2.34834683e+00 
 1.95280000e-04  4.70737626e+00  1.95280000e-04  2.35368813e+00 
 1.96280000e-04  4.71787301e+00  1.96280000e-04  2.35893651e+00 
 1.97280000e-04  4.72818352e+00  1.97280000e-04  2.36409176e+00 
 1.98280000e-04  4.73830736e+00  1.98280000e-04  2.36915368e+00 
 1.99280000e-04  4.74824415e+00  1.99280000e-04  2.37412207e+00 
 2.00280000e-04  4.75799348e+00  2.00280000e-04  2.37899674e+00 
 2.01280000e-04  4.76755497e+00  2.01280000e-04  2.38377748e+00 
 2.02280000e-04  4.77692825e+00  2.02280000e-04  2.38846412e+00 
 2.03280000e-04  4.78611294e+00  2.03280000e-04  2.39305647e+00 
 2.04280000e-04  4.79510869e+00  2.04280000e-04  2.39755434e+00 
 2.05280000e-04  4.80391513e+00  2.05280000e-04  2.40195757e+00 
 2.06280000e-04  4.81253192e+00  2.06280000e-04  2.40626596e+00 
 2.07280000e-04  4.82095873e+00  2.07280000e-04  2.41047936e+00 
 2.08280000e-04  4.82919520e+00  2.08280000e-04  2.41459760e+00 
 2.09280000e-04  4.83724104e+00  2.09280000e-04  2.41862052e+00 
 2.10280000e-04  4.84509590e+00  2.10280000e-04  2.42254795e+00 
 2.11280000e-04  4.85275949e+00  2.11280000e-04  2.42637974e+00 
 2.12280000e-04  4.86023150e+00  2.12280000e-04  2.43011575e+00 
 2.13280000e-04  4.86751164e+00  2.13280000e-04  2.43375582e+00 
 2.14280000e-04  4.87459961e+00  2.14280000e-04  2.43729981e+00 
 2.15280000e-04  4.88149515e+00  2.15280000e-04  2.44074757e+00 
 2.16280000e-04  4.88819797e+00  2.16280000e-04  2.44409898e+00 
 2.17280000e-04  4.89470781e+00  2.17280000e-04  2.44735391e+00 
 2.18280000e-04  4.90102442e+00  2.18280000e-04  2.45051221e+00 
 2.19280000e-04  4.90714754e+00  2.19280000e-04  2.45357377e+00 
 2.20280000e-04  4.91307694e+00  2.20280000e-04  2.45653847e+00 
 2.21280000e-04  4.91881238e+00  2.21280000e-04  2.45940619e+00 
 2.22280000e-04  4.92435364e+00  2.22280000e-04  2.46217682e+00 
 2.23280000e-04  4.92970048e+00  2.23280000e-04  2.46485024e+00 
 2.24280000e-04  4.93485272e+00  2.24280000e-04  2.46742636e+00 
 2.25280000e-04  4.93981013e+00  2.25280000e-04  2.46990506e+00 
 2.26280000e-04  4.94457253e+00  2.26280000e-04  2.47228626e+00 
 2.27280000e-04  4.94913972e+00  2.27280000e-04  2.47456986e+00 
 2.28280000e-04  4.95351153e+00  2.28280000e-04  2.47675577e+00 
 2.29280000e-04  4.95768778e+00  2.29280000e-04  2.47884389e+00 
 2.30280000e-04  4.96166832e+00  2.30280000e-04  2.48083416e+00 
 2.31280000e-04  4.96545297e+00  2.31280000e-04  2.48272649e+00 
 2.32280000e-04  4.96904160e+00  2.32280000e-04  2.48452080e+00 
 2.33280000e-04  4.97243406e+00  2.33280000e-04  2.48621703e+00 
 2.34280000e-04  4.97563021e+00  2.34280000e-04  2.48781511e+00 
 2.35280000e-04  4.97862994e+00  2.35280000e-04  2.48931497e+00 
 2.36280000e-04  4.98143312e+00  2.36280000e-04  2.49071656e+00 
 2.37280000e-04  4.98403964e+00  2.37280000e-04  2.49201982e+00 
 2.38280000e-04  4.98644939e+00  2.38280000e-04  2.49322470e+00 
 2.39280000e-04  4.98866230e+00  2.39280000e-04  2.49433115e+00 
 2.40280000e-04  4.99067825e+00  2.40280000e-04  2.49533913e+00 
 2.41280000e-04  4.99249719e+00  2.41280000e-04  2.49624859e+00 
 2.42280000e-04  4.99411903e+00  2.42280000e-04  2.49705951e+00 
 2.43280000e-04  4.99554371e+00  2.43280000e-04  2.49777185e+00 
 2.44280000e-04  4.99677117e+00  2.44280000e-04  2.49838559e+00 
 2.45280000e-04  4.99780137e+00  2.45280000e-04  2.49890069e+00 
 2.46280000e-04  4.99863427e+00  2.46280000e-04  2.49931713e+00 
 2.47280000e-04  4.99926982e+00  2.47280000e-04  2.49963491e+00 
 2.48280000e-04  4.99970802e+00  2.48280000e-04  2.49985401e+00 
 2.49280000e-04  4.99994884e+00  2.49280000e-04  2.49997442e+00 
 2.50280000e-04  4.99999226e+00  2.50280000e-04  2.49999613e+00 
 2.51280000e-04  4.99983830e+00  2.51280000e-04  2.49991915e+00 
 2.52280000e-04  4.99948695e+00  2.52280000e-04  2.49974347e+00 
 2.53280000e-04  4.99893823e+00  2.53280000e-04  2.49946911e+00 
 2.54280000e-04  4.99819216e+00  2.54280000e-04  2.49909608e+00 
 2.55280000e-04  4.99724876e+00  2.55280000e-04  2.49862438e+00 
 2.56280000e-04  4.99610809e+00  2.56280000e-04  2.49805405e+00 
 2.57280000e-04  4.99477018e+00  2.57280000e-04  2.49738509e+00 
 2.58280000e-04  4.99323508e+00  2.58280000e-04  2.49661754e+00 
 2.59280000e-04  4.99150286e+00  2.59280000e-04  2.49575143e+00 
 2.60280000e-04  4.98957359e+00  2.60280000e-04  2.49478679e+00 
 2.61280000e-04  4.98744733e+00  2.61280000e-04  2.49372366e+00 
 2.62280000e-04  4.98512418e+00  2.62280000e-04  2.49256209e+00 
 2.63280000e-04  4.98260422e+00  2.63280000e-04  2.49130211e+00 
 2.64280000e-04  4.97988756e+00  2.64280000e-04  2.48994378e+00 
 2.65280000e-04  4.97697430e+00  2.65280000e-04  2.48848715e+00 
 2.66280000e-04  4.97386456e+00  2.66280000e-04  2.48693228e+00 
 2.67280000e-04  4.97055846e+00  2.67280000e-04  2.48527923e+00 
 2.68280000e-04  4.96705613e+00  2.68280000e-04  2.48352806e+00 
 2.69280000e-04  4.96335771e+00  2.69280000e-04  2.48167885e+00 
 2.70280000e-04  4.95946334e+00  2.70280000e-04  2.47973167e+00 
 2.71280000e-04  4.95537318e+00  2.71280000e-04  2.47768659e+00 
 2.72280000e-04  4.95108740e+00  2.72280000e-04  2.47554370e+00 
 2.73280000e-04  4.94660615e+00  2.73280000e-04  2.47330308e+00 
 2.74280000e-04  4.94192962e+00  2.74280000e-04  2.47096481e+00 
 2.75280000e-04  4.93705799e+00  2.75280000e-04  2.46852900e+00 
 2.76280000e-04  4.93199146e+00  2.76280000e-04  2.46599573e+00 
 2.77280000e-04  4.92673021e+00  2.77280000e-04  2.46336511e+00 
 2.78280000e-04  4.92127447e+00  2.78280000e-04  2.46063724e+00 
 2.79280000e-04  4.91562445e+00  2.79280000e-04  2.45781222e+00 
 2.80280000e-04  4.90978036e+00  2.80280000e-04  2.45489018e+00 
 2.81280000e-04  4.90374245e+00  2.81280000e-04  2.45187122e+00 
 2.82280000e-04  4.89751094e+00  2.82280000e-04  2.44875547e+00 
 2.83280000e-04  4.89108609e+00  2.83280000e-04  2.44554304e+00 
 2.84280000e-04  4.88446814e+00  2.84280000e-04  2.44223407e+00 
 2.85280000e-04  4.87765737e+00  2.85280000e-04  2.43882869e+00 
 2.86280000e-04  4.87065404e+00  2.86280000e-04  2.43532702e+00 
 2.87280000e-04  4.86345842e+00  2.87280000e-04  2.43172921e+00 
 2.88280000e-04  4.85607079e+00  2.88280000e-04  2.42803540e+00 
 2.89280000e-04  4.84849146e+00  2.89280000e-04  2.42424573e+00 
 2.90280000e-04  4.84072072e+00  2.90280000e-04  2.42036036e+00 
 2.91280000e-04  4.83275888e+00  2.91280000e-04  2.41637944e+00 
 2.92280000e-04  4.82460624e+00  2.92280000e-04  2.41230312e+00 
 2.93280000e-04  4.81626314e+00  2.93280000e-04  2.40813157e+00 
 2.94280000e-04  4.80772990e+00  2.94280000e-04  2.40386495e+00 
 2.95280000e-04  4.79900687e+00  2.95280000e-04  2.39950343e+00 
 2.96280000e-04  4.79009437e+00  2.96280000e-04  2.39504718e+00 
 2.97280000e-04  4.78099277e+00  2.97280000e-04  2.39049638e+00 
 2.98280000e-04  4.77170242e+00  2.98280000e-04  2.38585121e+00 
